time	V(n002)	V(n005)-V(n001)	I(D2)	I(V1)
0.000000000000000e+00	0.000000e+00	0.000000e+00	0.000000e+00	0.000000e+00
9.362285449502195e-06	1.247874e-02	-5.168850e-03	-6.022919e-14	-1.946840e-09
1.872457089900439e-05	2.495726e-02	-1.033774e-02	-2.046059e-14	-7.786120e-09
2.808685634850659e-05	3.743556e-02	-1.550667e-02	1.193058e-13	-1.751784e-08
3.744914179800878e-05	4.991365e-02	-2.067565e-02	3.590699e-13	-3.114200e-08
4.681142724751097e-05	6.239152e-02	-2.584467e-02	6.988319e-13	-4.865861e-08
5.617371269701317e-05	7.486917e-02	-3.101373e-02	1.138592e-12	-7.006765e-08
6.553599814651534e-05	8.734661e-02	-3.618283e-02	1.678349e-12	-9.536914e-08
1.310719962930307e-04	1.746645e-01	-7.236604e-02	3.755437e-11	-3.347514e-07
1.819091351478158e-04	2.422693e-01	-1.004476e-01	3.167500e-10	-6.060443e-07
2.222219809370169e-04	2.954630e-01	-1.227817e-01	1.501642e-09	-8.870507e-07
2.484184604457624e-04	3.292349e-01	-1.374244e-01	4.237920e-09	-1.102339e-06
2.675906173545636e-04	3.526054e-01	-1.483297e-01	9.360350e-09	-1.279271e-06
2.867950027552290e-04	3.736987e-01	-1.594878e-01	1.885953e-08	-1.472770e-06
3.050772860143783e-04	3.904540e-01	-1.702574e-01	3.134598e-08	-1.671694e-06
3.287567280738091e-04	4.068158e-01	-1.840549e-01	4.663251e-08	-1.949906e-06
3.679492603630648e-04	4.266867e-01	-2.061829e-01	6.178609e-08	-2.448536e-06
4.116694117425694e-04	4.447470e-01	-2.302427e-01	6.791421e-08	-3.060160e-06
4.626617672539226e-04	4.645933e-01	-2.580670e-01	6.970142e-08	-3.868973e-06
5.471859849607592e-04	4.987455e-01	-3.040873e-01	7.182361e-08	-5.470808e-06
7.162344203744323e-04	5.790653e-01	-3.850109e-01	8.072617e-08	-9.949833e-06
1.054331291201778e-03	7.934698e-01	-4.946189e-01	1.142694e-07	-2.353513e-05
1.367973512704287e-03	1.079518e+00	-5.456243e-01	1.631805e-07	-4.179906e-05
1.598143708624174e-03	1.385887e+00	-5.630040e-01	2.000556e-07	-5.973485e-05
1.896949141025906e-03	1.883937e+00	-5.782549e-01	2.126547e-07	-8.798553e-05
2.125191648728036e-03	2.286860e+00	-5.875378e-01	1.986926e-07	-1.131471e-04
2.441601500315384e-03	2.840184e+00	-6.005070e-01	1.781084e-07	-1.540683e-04
3.000390738826352e-03	3.782419e+00	-6.277103e-01	1.524813e-07	-2.398170e-04
3.976953238826352e-03	5.364838e+00	-6.312232e-01	1.206437e-07	-4.096182e-04
4.099023551326352e-03	5.550498e+00	-6.293354e-01	1.271559e-07	-4.327078e-04
4.343164176326352e-03	5.867562e+00	-6.340423e-01	4.330495e-07	-4.817356e-04
4.636026737236546e-03	6.165071e+00	-6.380849e-01	3.766275e-06	-5.445367e-04
4.905676168291329e-03	6.391456e+00	-6.433272e-01	4.081921e-05	-6.368960e-04
5.251230236183586e-03	6.654240e+00	-6.661654e-01	1.292612e-03	-1.957876e-03
5.869544076190059e-03	7.085370e+00	-7.324848e-01	1.729336e-02	-1.807567e-02
6.714115418373298e-03	7.630555e+00	-8.007765e-01	6.949039e-02	-7.042173e-02
7.571203596762142e-03	8.103773e+00	-8.379021e-01	1.361113e-01	-1.371740e-01
8.547766096762142e-03	8.490991e+00	-8.602762e-01	1.982872e-01	-1.994607e-01
9.524328596762142e-03	8.694800e+00	-8.607874e-01	2.320860e-01	-2.333196e-01
1.042292373892206e-02	8.705051e+00	-8.537970e-01	2.338173e-01	-2.350539e-01
1.128845914579391e-02	8.543893e+00	-8.541117e-01	2.070249e-01	-2.082139e-01
1.226502164579391e-02	8.177127e+00	-8.486691e-01	1.478305e-01	-1.489141e-01
1.324158414579391e-02	7.652085e+00	-8.147211e-01	7.436606e-02	-7.530344e-02
1.421814664579391e-02	7.012944e+00	-7.545023e-01	1.960723e-02	-2.037096e-02
1.519470914579391e-02	6.288211e+00	-6.744671e-01	8.115636e-04	-1.385860e-03
1.576578183722844e-02	5.760876e+00	-6.412182e-01	1.145792e-06	-4.615030e-04
1.621795975751187e-02	5.244616e+00	-6.278725e-01	-3.582447e-08	-3.720913e-04
1.647039173702717e-02	4.967487e+00	-6.220632e-01	-6.568361e-08	-3.252929e-04
1.676712304936559e-02	4.686234e+00	-6.166987e-01	-6.966957e-08	-2.733154e-04
1.702611783736604e-02	4.454809e+00	-6.111598e-01	-6.623961e-08	-2.306777e-04
1.730549470737764e-02	4.221131e+00	-6.046519e-01	-6.411498e-08	-1.880253e-04
1.757540981022011e-02	4.009593e+00	-5.972369e-01	-6.093614e-08	-1.503448e-04
1.785626097031920e-02	3.803471e+00	-5.884466e-01	-5.915373e-08	-1.155105e-04
1.821474872631422e-02	3.560779e+00	-5.732322e-01	-5.540351e-08	-7.858898e-05
1.877344620929214e-02	3.235945e+00	-4.846499e-01	-4.880595e-08	-3.914251e-05
1.966566861046431e-02	2.806557e+00	-1.745640e-01	-3.725804e-08	-3.161591e-06
1.978241807892831e-02	2.761266e+00	-1.087712e-01	-3.415335e-08	-1.080922e-06
2.001591701585632e-02	2.619294e+00	6.208674e-02	-1.609173e-08	2.606207e-07
2.038714117349585e-02	2.228341e+00	3.663223e-01	2.913799e-08	2.837188e-06
2.043665450707125e-02	2.173779e+00	4.339422e-01	3.329707e-08	3.441825e-06
2.053568117422206e-02	2.076788e+00	6.184851e-01	3.530203e-08	5.280105e-06
2.073373450852368e-02	1.874272e+00	9.880301e-01	3.823942e-08	1.073689e-05
2.112984117712691e-02	1.431078e+00	1.721980e+00	4.608416e-08	3.062454e-05
2.188666967580766e-02	5.671087e-01	3.102881e+00	5.553709e-08	9.542694e-05
2.276045836125044e-02	-3.263801e-01	4.636792e+00	6.343556e-08	2.056387e-04
2.360590813978479e-02	-1.008554e+00	6.016504e+00	2.646860e-07	3.452027e-04
2.458247063978479e-02	-1.653577e+00	7.406553e+00	3.102502e-04	8.414187e-04
2.555903313978479e-02	-2.251853e+00	8.554452e+00	1.034540e-02	1.106797e-02
2.636422152511156e-02	-2.637966e+00	9.363556e+00	4.510394e-02	4.597512e-02
2.723410602007718e-02	-2.900118e+00	1.011266e+01	1.096570e-01	1.106705e-01
2.821066852007718e-02	-3.084782e+00	1.074059e+01	1.795946e-01	1.807350e-01
2.918723102007718e-02	-3.193275e+00	1.110708e+01	2.260575e-01	2.272803e-01
2.989013417007719e-02	-3.223754e+00	1.120130e+01	2.395951e-01	2.408420e-01
3.055916148041757e-02	-3.208390e+00	1.115761e+01	2.327141e-01	2.339487e-01
3.151004144321845e-02	-3.123033e+00	1.087284e+01	1.955425e-01	1.967112e-01
3.248660394321845e-02	-2.960559e+00	1.031783e+01	1.313551e-01	1.324086e-01
3.346316644321845e-02	-2.688236e+00	9.528892e+00	5.931408e-02	6.021411e-02
3.443972894321845e-02	-2.241819e+00	8.561119e+00	1.309899e-02	1.382116e-02
3.541629144321845e-02	-1.570474e+00	7.505997e+00	2.309158e-04	7.610936e-04
3.598803830190797e-02	-1.086570e+00	6.884951e+00	1.919579e-07	4.177811e-04
3.662230928083803e-02	-5.694408e-01	6.091319e+00	-5.938007e-08	2.997349e-04
3.701124053551264e-02	-2.738775e-01	5.486535e+00	-6.663196e-08	2.335124e-04
3.731188869653645e-02	-2.405226e-02	4.973926e+00	-6.335308e-08	1.873059e-04
3.762153961007772e-02	2.671247e-01	4.434814e+00	-6.090582e-08	1.453295e-04
3.811704194414324e-02	7.842336e-01	3.550655e+00	-5.615057e-08	9.100268e-05
3.888261371170169e-02	1.605378e+00	2.143478e+00	-4.678649e-08	3.636512e-05
3.985917621170169e-02	2.591003e+00	3.056289e-01	-3.239293e-08	1.554627e-06
3.998124652420169e-02	2.695861e+00	7.255711e-02	-2.587234e-08	3.736579e-08
4.001176410232669e-02	2.722117e+00	2.402681e-02	-1.930090e-08	-1.483792e-08
4.007279925857669e-02	2.791983e+00	-3.411942e-02	-6.017232e-09	-1.602994e-07
4.019486957107669e-02	2.934211e+00	-1.078594e-01	5.629115e-09	-9.411601e-07
4.043901019607669e-02	3.150065e+00	-2.434582e-01	3.076789e-08	-3.565387e-06
4.050004535232669e-02	3.184239e+00	-2.770916e-01	3.465145e-08	-4.516248e-06
4.062211566482669e-02	3.229557e+00	-3.418643e-01	3.603997e-08	-7.184151e-06
4.086625628982669e-02	3.333383e+00	-4.391351e-01	4.048708e-08	-1.567577e-05
4.135453753982669e-02	3.586019e+00	-5.355823e-01	4.993667e-08	-4.533566e-05
4.208216943767823e-02	4.026506e+00	-5.931916e-01	5.696792e-08	-1.145380e-04
4.281250574950736e-02	4.551420e+00	-6.267228e-01	6.361811e-08	-2.127793e-04
4.378906824950736e-02	5.376890e+00	-6.615376e-01	1.017886e-06	-3.803544e-04
4.476563074950736e-02	6.229733e+00	-6.946712e-01	8.920376e-04	-1.459029e-03
4.574219324950736e-02	6.988535e+00	-7.420263e-01	1.556436e-02	-1.632139e-02
4.653853588601081e-02	7.522410e+00	-7.887421e-01	5.637242e-02	-5.727409e-02
4.739022092673739e-02	8.011912e+00	-8.332472e-01	1.220543e-01	-1.230913e-01
4.836678342673739e-02	8.432385e+00	-8.582945e-01	1.886806e-01	-1.898372e-01
4.934334592673739e-02	8.687504e+00	-8.404646e-01	2.308622e-01	-2.320935e-01
4.996469797609616e-02	8.745295e+00	-8.256960e-01	2.405492e-01	-2.417978e-01
5.058687877821139e-02	8.696921e+00	-8.404484e-01	2.324522e-01	-2.336864e-01
5.155510351947555e-02	8.458778e+00	-8.586903e-01	1.930202e-01	-1.941844e-01
5.253166601947555e-02	8.047523e+00	-8.425846e-01	1.279168e-01	-1.289639e-01
5.350822851947555e-02	7.488077e+00	-7.993631e-01	5.636976e-02	-5.726201e-02
5.448479101947555e-02	6.823408e+00	-7.339544e-01	1.197673e-02	-1.269035e-02
5.546135351947555e-02	6.040332e+00	-6.642847e-01	1.722709e-04	-6.934939e-04
5.602219573882685e-02	5.494916e+00	-6.407733e-01	1.186841e-07	-4.110681e-04
5.664679337311355e-02	4.842252e+00	-6.256490e-01	-6.035243e-08	-2.956117e-04
5.706351644803043e-02	4.450556e+00	-6.123700e-01	-6.576740e-08	-2.254631e-04
5.739474549411275e-02	4.177322e+00	-6.030631e-01	-6.235003e-08	-1.755122e-04
5.770836403281950e-02	3.939977e+00	-5.943017e-01	-6.007854e-08	-1.340253e-04
5.815124735879321e-02	3.634452e+00	-5.771458e-01	-5.565993e-08	-8.593041e-05
5.876889702067328e-02	3.273056e+00	-4.779789e-01	-4.851210e-08	-4.095824e-05
5.974545952067328e-02	2.806463e+00	-1.296461e-01	-3.688201e-08	-2.455791e-06
5.986752983317328e-02	2.746251e+00	-6.040160e-02	-3.007772e-08	-5.024065e-07
6.011167045817328e-02	2.584552e+00	1.124800e-01	-3.449623e-09	2.914932e-07
6.017270561442328e-02	2.520065e+00	1.522080e-01	5.950786e-10	5.961126e-07
6.029477592692328e-02	2.358973e+00	2.292086e-01	5.996889e-09	1.578551e-06
6.032529350504828e-02	2.321625e+00	2.586265e-01	1.198898e-08	1.900670e-06
6.038632866129828e-02	2.255562e+00	3.488985e-01	2.612108e-08	2.726968e-06
6.050839897379828e-02	2.133557e+00	5.674888e-01	3.504796e-08	4.867651e-06
6.075253959879828e-02	1.887529e+00	1.023243e+00	3.835397e-08	1.101652e-05
6.102722446419502e-02	1.583771e+00	1.532424e+00	4.415544e-08	2.292596e-05
6.157659419498850e-02	9.407764e-01	2.541351e+00	5.254788e-08	6.256996e-05
6.226414988990506e-02	1.775770e-01	3.775549e+00	5.828852e-08	1.357728e-04
6.302034341806990e-02	-5.271605e-01	5.076039e+00	6.600411e-08	2.450279e-04
6.399690591806990e-02	-1.255649e+00	6.603480e+00	4.985830e-06	4.231080e-04
6.497346841806990e-02	-1.899737e+00	7.891940e+00	2.424507e-03	3.032387e-03
6.595003091806990e-02	-2.451758e+00	8.961909e+00	2.439665e-02	2.519207e-02
6.679504479282872e-02	-2.783600e+00	9.753876e+00	7.548692e-02	7.643162e-02
6.767053124584146e-02	-2.995095e+00	1.042377e+01	1.435293e-01	1.446053e-01
6.864709374584146e-02	-3.143423e+00	1.093767e+01	2.042996e-01	2.054838e-01
6.948341979647762e-02	-3.207414e+00	1.116446e+01	2.322789e-01	2.335127e-01
7.040764063825916e-02	-3.211231e+00	1.117908e+01	2.339230e-01	2.351598e-01
7.126359381574476e-02	-3.152682e+00	1.097136e+01	2.082157e-01	2.094069e-01
7.224015631574476e-02	-3.009799e+00	1.048186e+01	1.496241e-01	1.507109e-01
7.321671881574476e-02	-2.770901e+00	9.747012e+00	7.611547e-02	7.705694e-02
7.419328131574476e-02	-2.373587e+00	8.818880e+00	2.046748e-02	2.123583e-02
7.516984381574476e-02	-1.788118e+00	7.745881e+00	8.760351e-04	1.455311e-03
7.569760591196829e-02	-1.366916e+00	7.178651e+00	1.700637e-06	4.759533e-04
7.630111415704827e-02	-8.173183e-01	6.555418e+00	-3.735463e-08	3.571287e-04
7.662763639843057e-02	-5.546352e-01	6.117184e+00	-6.740758e-08	2.978160e-04
7.701313110460424e-02	-2.718501e-01	5.481209e+00	-6.632547e-08	2.332421e-04
7.732346659638643e-02	-1.327774e-02	4.952485e+00	-6.301254e-08	1.855829e-04
7.761446946812331e-02	2.577506e-01	4.446358e+00	-6.101966e-08	1.453986e-04
7.792706077469382e-02	5.731046e-01	3.891643e+00	-5.748771e-08	1.074325e-04
7.827330770613111e-02	9.479187e-01	3.267133e+00	-5.553072e-08	7.259191e-05
7.876839538457221e-02	1.491005e+00	2.355350e+00	-4.835674e-08	3.743446e-05
7.949827422820473e-02	2.255203e+00	9.826950e-01	-2.959751e-08	5.575097e-06
7.962034454070473e-02	2.374857e+00	7.535514e-01	-2.966965e-08	2.820853e-06
7.986448516570473e-02	2.604521e+00	2.969248e-01	-3.441868e-08	4.236208e-07
7.990950814597678e-02	2.643347e+00	2.107729e-01	-3.245803e-08	1.814665e-07
7.999955410652088e-02	2.708472e+00	3.674503e-02	-1.895824e-08	1.108850e-08
8.002206559665689e-02	2.727216e+00	3.119051e-03	-1.270909e-08	-1.764984e-08
8.006708857692894e-02	2.779677e+00	-3.454532e-02	-3.308875e-09	-1.159552e-07
8.015713453747304e-02	2.894151e+00	-8.687782e-02	1.976832e-09	-5.833231e-07
8.033722645856124e-02	3.099112e+00	-1.869130e-01	1.557352e-08	-2.097920e-06
8.038224943883329e-02	3.134477e+00	-2.119880e-01	2.246359e-08	-2.639646e-06
8.047229539937739e-02	3.174670e+00	-2.618443e-01	3.297230e-08	-4.115234e-06
8.065238732046559e-02	3.244952e+00	-3.520114e-01	3.723646e-08	-8.361094e-06
8.101257116264199e-02	3.408573e+00	-4.717305e-01	4.343323e-08	-2.372775e-05
8.167664526520639e-02	3.774543e+00	-5.669496e-01	5.347227e-08	-7.263253e-05
8.238302446550365e-02	4.230887e+00	-6.069725e-01	5.948100e-08	-1.511029e-04
8.315874136098410e-02	4.834288e+00	-6.383920e-01	6.957151e-08	-2.675182e-04
8.413530386098410e-02	5.694876e+00	-6.702409e-01	1.422879e-05	-4.587068e-04
8.511186636098410e-02	6.516460e+00	-7.105632e-01	4.130654e-03	-4.765844e-03
8.608842886098410e-02	7.223308e+00	-7.756367e-01	3.258760e-02	-3.340787e-02
8.706499136098410e-02	7.832618e+00	-8.262997e-01	9.698336e-02	-9.797059e-02
8.799078339784004e-02	8.291952e+00	-8.499422e-01	1.659174e-01	-1.670334e-01
8.896734589784004e-02	8.618950e+00	-8.396769e-01	2.194331e-01	-2.206442e-01
8.960258883489966e-02	8.720137e+00	-8.365231e-01	2.363268e-01	-2.375679e-01
9.045212748910338e-02	8.703794e+00	-8.517418e-01	2.336057e-01	-2.348419e-01
9.133596881974157e-02	8.529819e+00	-8.549595e-01	2.046942e-01	-2.058791e-01
9.231253131974157e-02	8.154932e+00	-8.476944e-01	1.443694e-01	-1.454467e-01
9.328909381974157e-02	7.623488e+00	-8.120966e-01	7.105841e-02	-7.198789e-02
9.426565631974157e-02	6.979990e+00	-7.507000e-01	1.804623e-02	-1.880110e-02
9.524221881974157e-02	6.241470e+00	-6.704307e-01	6.054030e-04	-1.170198e-03
9.577664866678445e-02	5.742826e+00	-6.463156e-01	1.005991e-06	-4.600018e-04
9.649609690081577e-02	4.966255e+00	-6.284943e-01	-5.001068e-08	-3.220023e-04
9.684463715896707e-02	4.617831e+00	-6.172228e-01	-6.795962e-08	-2.609410e-04
9.724915143340136e-02	4.271441e+00	-6.092267e-01	-6.517402e-08	-1.977317e-04
9.772355504623559e-02	3.902996e+00	-5.953786e-01	-5.992932e-08	-1.330616e-04
9.816681372344895e-02	3.593468e+00	-5.763328e-01	-5.660355e-08	-8.420140e-05
9.875818259138539e-02	3.245922e+00	-4.844912e-01	-4.845021e-08	-4.078923e-05
9.967758849749764e-02	2.806401e+00	-1.681934e-01	-2.549525e-08	-3.113234e-06
9.979965880999764e-02	2.755949e+00	-9.466213e-02	-2.322620e-08	-9.657600e-07
1.000437994349976e-01	2.596143e+00	1.204922e-01	-1.120844e-08	6.190755e-07
1.005320806849976e-01	2.083879e+00	6.319917e-01	3.510477e-08	5.283041e-06
1.005893578764270e-01	2.022442e+00	7.179838e-01	3.720954e-08	6.232470e-06
1.007039122592858e-01	1.908750e+00	9.329047e-01	3.706229e-08	9.139593e-06
1.009330210250035e-01	1.660425e+00	1.358112e+00	4.216605e-08	1.800830e-05
1.013912385564387e-01	1.125512e+00	2.202340e+00	5.092594e-08	4.679492e-05
1.020156669726407e-01	4.114735e-01	3.334164e+00	5.664470e-08	1.057229e-04
1.027083167930124e-01	-2.815541e-01	4.547697e+00	6.288575e-08	1.970269e-04
1.036848792930124e-01	-1.058750e+00	6.136443e+00	4.750842e-07	3.607952e-04
1.046614417930124e-01	-1.706994e+00	7.506954e+00	4.978808e-04	1.044472e-03
1.056380042930124e-01	-2.296164e+00	8.638123e+00	1.226988e-02	1.300740e-02
1.064302158197684e-01	-2.663993e+00	9.424994e+00	4.906490e-02	4.994778e-02
1.072861590528231e-01	-2.913121e+00	1.015204e+01	1.137967e-01	1.148182e-01
1.082627215528231e-01	-3.092342e+00	1.076687e+01	1.827040e-01	1.838499e-01
1.092392840528231e-01	-3.198259e+00	1.111892e+01	2.282756e-01	2.295024e-01
1.098550683413482e-01	-3.224251e+00	1.119997e+01	2.398376e-01	2.410849e-01
1.105461237222943e-01	-3.208637e+00	1.115974e+01	2.328328e-01	2.340677e-01
1.114888426681800e-01	-3.125776e+00	1.088199e+01	1.967076e-01	1.978783e-01
1.124654051681800e-01	-2.965041e+00	1.033255e+01	1.329642e-01	1.340207e-01
1.134419676681800e-01	-2.695755e+00	9.548128e+00	6.071324e-02	6.161690e-02
1.144185301681800e-01	-2.253813e+00	8.583570e+00	1.364671e-02	1.437290e-02
1.153950926681800e-01	-1.591814e+00	7.523267e+00	2.619395e-04	7.963229e-04
1.159638338154123e-01	-1.115170e+00	6.902364e+00	2.394357e-07	4.225554e-04
1.166140796949423e-01	-5.805259e-01	6.098507e+00	-5.844943e-08	3.012733e-04
1.170122431676397e-01	-2.750831e-01	5.484983e+00	-6.670154e-08	2.333622e-04
1.173087423970198e-01	-2.902167e-02	4.979429e+00	-6.346407e-08	1.877818e-04
1.176269376433422e-01	2.717704e-01	4.425337e+00	-6.082519e-08	1.450820e-04
1.182116501346722e-01	8.846136e-01	3.379148e+00	-5.501608e-08	8.470834e-05
1.191882126346722e-01	1.958126e+00	1.571048e+00	-4.064005e-08	1.384310e-05
1.193102829471722e-01	2.082370e+00	1.341238e+00	-3.821551e-08	8.724131e-06
1.195544235721722e-01	2.301470e+00	8.853356e-01	-3.337340e-08	4.565100e-06
1.200427048221722e-01	2.729771e+00	2.899450e-02	-1.408414e-08	1.230188e-07
1.201294342053194e-01	2.824102e+00	-6.836933e-02	-7.475002e-09	-4.311342e-07
1.203028929716138e-01	3.046097e+00	-1.673727e-01	3.528253e-09	-1.696988e-06
1.203462576631874e-01	3.091942e+00	-1.915704e-01	1.019198e-08	-2.166162e-06
1.204329870463345e-01	3.148577e+00	-2.400053e-01	2.659703e-08	-3.471356e-06
1.206064458126289e-01	3.221884e+00	-3.321412e-01	3.630847e-08	-7.052868e-06
1.208943107607467e-01	3.341782e+00	-4.521208e-01	4.157273e-08	-1.625919e-05
1.212237480396073e-01	3.507641e+00	-5.247811e-01	4.853884e-08	-3.457148e-05
1.218826225973285e-01	3.895382e+00	-5.818062e-01	5.536610e-08	-9.231227e-05
1.226022456619256e-01	4.390519e+00	-6.191826e-01	6.158375e-08	-1.823026e-04
1.235788081619256e-01	5.192649e+00	-6.561055e-01	2.363499e-07	-3.415243e-04
1.245553706619256e-01	6.055877e+00	-6.849160e-01	2.622755e-04	-7.881582e-04
1.255319331619256e-01	6.839753e+00	-7.264786e-01	9.890531e-03	-1.060791e-02
1.263510146501583e-01	7.402160e+00	-7.788773e-01	4.454765e-02	-4.541641e-02
1.272316556575527e-01	7.925977e+00	-8.303499e-01	1.094708e-01	-1.104839e-01
1.282082181575527e-01	8.375586e+00	-8.563347e-01	1.794463e-01	-1.805864e-01
1.291847806575527e-01	8.658371e+00	-8.454800e-01	2.259999e-01	-2.272226e-01
1.298861447013402e-01	8.739441e+00	-8.318481e-01	2.395723e-01	-2.408192e-01
1.305576782818313e-01	8.698540e+00	-8.431587e-01	2.327277e-01	-2.339624e-01
1.315076299063572e-01	8.474990e+00	-8.579264e-01	1.956757e-01	-1.968446e-01
1.324841924063572e-01	8.071481e+00	-8.437843e-01	1.315385e-01	-1.325923e-01
1.334607549063572e-01	7.517950e+00	-8.021488e-01	5.947280e-02	-6.037324e-02
1.344373174063572e-01	6.857756e+00	-7.377348e-01	1.316064e-02	-1.388327e-02
1.354138799063572e-01	6.082507e+00	-6.667347e-01	2.329145e-04	-7.635606e-04
1.359800397901574e-01	5.533648e+00	-6.420135e-01	1.977682e-07	-4.192850e-04
1.366075610633803e-01	4.870776e+00	-6.271091e-01	-5.776211e-08	-3.026147e-04
1.370521673682463e-01	4.446539e+00	-6.127300e-01	-6.623976e-08	-2.272660e-04
1.373679229474658e-01	4.183522e+00	-6.036181e-01	-6.295280e-08	-1.792599e-04
1.376772774727142e-01	3.949028e+00	-5.959668e-01	-6.048428e-08	-1.385056e-04
1.382519146934293e-01	3.563805e+00	-5.626411e-01	-5.465744e-08	-8.038853e-05
1.391886975757044e-01	3.014866e+00	-4.216753e-01	-4.012295e-08	-1.374834e-05
1.393107678882044e-01	2.956861e+00	-3.766869e-01	-3.780439e-08	-8.711979e-06
1.395549085132044e-01	2.862221e+00	-2.293631e-01	-3.335514e-08	-4.557185e-06
1.400431897632044e-01	2.647989e+00	1.117243e-01	-1.399444e-08	-1.211742e-07
1.401299783721087e-01	2.569498e+00	1.686236e-01	-7.404915e-09	4.338244e-07
1.403035555899173e-01	2.340974e+00	2.729400e-01	3.578261e-09	1.704231e-06
1.403469498943695e-01	2.287180e+00	3.125069e-01	1.026475e-08	2.174751e-06
1.404337385032738e-01	2.193048e+00	4.399614e-01	2.667303e-08	3.483112e-06
1.406073157210823e-01	2.018644e+00	7.522756e-01	3.633276e-08	7.071185e-06
1.408945071541456e-01	1.717172e+00	1.286623e+00	4.158350e-08	1.626828e-05
